
T0ACC 000:295 SEGGER J-Link V4.96d Log File (0005ms, 0274ms total)
T0ACC 000:295 DLL Compiled: Jan 29 2015 11:45:37 (0005ms, 0274ms total)
T0ACC 000:295 Logging started @ 2017-10-17 14:39 (0005ms, 0274ms total)
T0ACC 000:300 JLINK_SetWarnOutHandler(...) (0000ms, 0274ms total)
T0ACC 000:300 JLINK_OpenEx(...)
Firmware: J-Link ARM V8 compiled Nov 28 2014 13:44:46
Hardware: V8.00
S/N: 17935099
Feature(s): RDI,FlashDL,FlashBP,JFlash  returns O.K. (0267ms, 0541ms total)
T0ACC 000:567 JLINK_SetErrorOutHandler(...) (0000ms, 0541ms total)
T0ACC 000:567 JLINK_ExecCommand("ProjectFile = "E:\work\sizhou\Ywt\subcontrol\USER\JLinkSettings.ini"", ...)Device "UNSPECIFIED" selected.  returns 0x00 (0005ms, 0546ms total)
T0ACC 000:578 JLINK_ExecCommand("Device = STM32F407ZGTx", ...)Device "UNSPECIFIED" selected.  returns 0x00 (0016ms, 0562ms total)
T0ACC 000:594 JLINK_ExecCommand("DisableConnectionTimeout", ...)  returns 0x01 (0000ms, 0562ms total)
T0ACC 000:594 JLINK_GetHardwareVersion()  returns 0x13880 (0000ms, 0562ms total)
T0ACC 000:594 JLINK_GetDLLVersion()  returns 49604 (0000ms, 0562ms total)
T0ACC 000:594 JLINK_GetFirmwareString(...) (0000ms, 0562ms total)
T0ACC 000:614 JLINK_GetDLLVersion()  returns 49604 (0000ms, 0562ms total)
T0ACC 000:614 JLINK_GetCompileDateTime() (0000ms, 0562ms total)
T0ACC 000:616 JLINK_GetFirmwareString(...) (0000ms, 0562ms total)
T0ACC 000:619 JLINK_GetHardwareVersion()  returns 0x13880 (0000ms, 0562ms total)
T0ACC 000:632 JLINK_TIF_Select(JLINKARM_TIF_SWD)  returns 0x00 (0001ms, 0563ms total)
T0ACC 000:633 JLINK_SetSpeed(10000) (0000ms, 0563ms total)
T0ACC 000:633 JLINK_GetId() >0x108 TIF>Found SWD-DP with ID 0x2BA01477 >0x0D TIF> >0x21 TIF> >0x0D TIF> >0x28 TIF> >0x0D TIF> >0x28 TIF> >0x0D TIF> >0x21 TIF> >0x0D TIF> >0x28 TIF> >0x0D TIF> >0x21 TIF> >0x0D TIF> >0x21 TIF> >0x0D TIF> >0x21 TIF> >0x0D TIF> >0x21 TIF> >0x0D TIF> >0x28 TIF> >0x0D TIF> >0x28 TIF> >0x0D TIF> >0x21 TIF> >0x0D TIF> >0x28 TIF> >0x0D TIF> >0x28 TIF> >0x0D TIF> >0x28 TIF> >0x0D TIF> >0x21 TIF> >0x0D TIF> >0x21 TIF> >0x0D TIF> >0x28 TIF> >0x0D TIF> >0x21 TIF> >0x0D TIF>
 >0x21 TIF>Found Cortex-M4 r0p1, Little endian. -- CPU_WriteMem(4 bytes @ 0xE0002000) -- CPU_ReadMem(4 bytes @ 0xE000EDF0) -- CPU_ReadMem(4 bytes @ 0xE0002000)FPUnit: 6 code (BP) slots and 2 literal slots -- CPU_ReadMem(4 bytes @ 0xE000EDFC) -- CPU_ReadMem(4 bytes @ 0xE0001000) -- CPU_WriteMem(4 bytes @ 0xE0001000) -- CPU_ReadMem(4 bytes @ 0xE000ED88) -- CPU_WriteMem(4 bytes @ 0xE000ED88) -- CPU_ReadMem(4 bytes @ 0xE000ED88) -- CPU_WriteMem(4 bytes @ 0xE000ED88) -- CPU_ReadMem(4 bytes @ 0xE00FF010)
TPIU fitted. -- CPU_ReadMem(4 bytes @ 0xE00FF014)ETM fitted. -- CPU_ReadMem(4 bytes @ 0xE00FF018) >0x0D TIF> >0x21 TIF>  returns 0x2BA01477 (0037ms, 0600ms total)
T0ACC 000:670 JLINK_GetDLLVersion()  returns 49604 (0000ms, 0600ms total)
T0ACC 000:670 JLINK_CORE_GetFound()  returns 0xE0000FF (0000ms, 0600ms total)
T0ACC 000:670 JLINK_GetDebugInfo(0x100) -- Value=0xE00FF003  returns 0x00 (0000ms, 0600ms total)
T0ACC 000:678 JLINK_ReadMem (0xE00FF000, 0x0020 Bytes, ...) -- CPU is running -- CPU_ReadMem(32 bytes @ 0xE00FF000) - Data: 03 F0 F0 FF 03 20 F0 FF 03 30 F0 FF 03 10 F0 FF ...  returns 0x00 (0001ms, 0601ms total)
T0ACC 000:679 JLINK_ReadMem (0xE000EFF0, 0x0010 Bytes, ...) -- CPU is running -- CPU_ReadMem(16 bytes @ 0xE000EFF0) - Data: 0D 00 00 00 E0 00 00 00 05 00 00 00 B1 00 00 00  returns 0x00 (0000ms, 0601ms total)
T0ACC 000:679 JLINK_ReadMem (0xE000EFD0, 0x0020 Bytes, ...) -- CPU is running -- CPU_ReadMem(32 bytes @ 0xE000EFD0) - Data: 04 00 00 00 00 00 00 00 00 00 00 00 00 00 00 00 ...  returns 0x00 (0001ms, 0602ms total)
T0ACC 000:680 JLINK_ReadMem (0xE0001FF0, 0x0010 Bytes, ...) -- CPU is running -- CPU_ReadMem(16 bytes @ 0xE0001FF0) - Data: 0D 00 00 00 E0 00 00 00 05 00 00 00 B1 00 00 00  returns 0x00 (0000ms, 0602ms total)
T0ACC 000:680 JLINK_ReadMem (0xE0001FD0, 0x0020 Bytes, ...) -- CPU is running -- CPU_ReadMem(32 bytes @ 0xE0001FD0) - Data: 04 00 00 00 00 00 00 00 00 00 00 00 00 00 00 00 ...  returns 0x00 (0001ms, 0603ms total)
T0ACC 000:681 JLINK_ReadMem (0xE0002FF0, 0x0010 Bytes, ...) -- CPU is running -- CPU_ReadMem(16 bytes @ 0xE0002FF0) - Data: 0D 00 00 00 E0 00 00 00 05 00 00 00 B1 00 00 00  returns 0x00 (0001ms, 0604ms total)
T0ACC 000:682 JLINK_ReadMem (0xE0002FD0, 0x0020 Bytes, ...) -- CPU is running -- CPU_ReadMem(32 bytes @ 0xE0002FD0) - Data: 04 00 00 00 00 00 00 00 00 00 00 00 00 00 00 00 ...  returns 0x00 (0000ms, 0604ms total)
T0ACC 000:682 JLINK_ReadMem (0xE0000FF0, 0x0010 Bytes, ...) -- CPU is running -- CPU_ReadMem(16 bytes @ 0xE0000FF0) - Data: 0D 00 00 00 E0 00 00 00 05 00 00 00 B1 00 00 00  returns 0x00 (0001ms, 0605ms total)
T0ACC 000:683 JLINK_ReadMem (0xE0000FD0, 0x0020 Bytes, ...) -- CPU is running -- CPU_ReadMem(32 bytes @ 0xE0000FD0) - Data: 04 00 00 00 00 00 00 00 00 00 00 00 00 00 00 00 ...  returns 0x00 (0000ms, 0605ms total)
T0ACC 000:683 JLINK_ReadMem (0xE0040FF0, 0x0010 Bytes, ...) -- CPU is running -- CPU_ReadMem(16 bytes @ 0xE0040FF0) - Data: 0D 00 00 00 90 00 00 00 05 00 00 00 B1 00 00 00  returns 0x00 (0001ms, 0606ms total)
T0ACC 000:684 JLINK_ReadMem (0xE0040FD0, 0x0020 Bytes, ...) -- CPU is running -- CPU_ReadMem(32 bytes @ 0xE0040FD0) - Data: 04 00 00 00 00 00 00 00 00 00 00 00 00 00 00 00 ...  returns 0x00 (0001ms, 0607ms total)
T0ACC 000:685 JLINK_ReadMem (0xE0041FF0, 0x0010 Bytes, ...) -- CPU is running -- CPU_ReadMem(16 bytes @ 0xE0041FF0) - Data: 0D 00 00 00 90 00 00 00 05 00 00 00 B1 00 00 00  returns 0x00 (0000ms, 0607ms total)
T0ACC 000:685 JLINK_ReadMem (0xE0041FD0, 0x0020 Bytes, ...) -- CPU is running -- CPU_ReadMem(32 bytes @ 0xE0041FD0) - Data: 04 00 00 00 00 00 00 00 00 00 00 00 00 00 00 00 ...  returns 0x00 (0001ms, 0608ms total)
T0ACC 000:686 JLINK_ReadMemU32(0xE000EF40, 0x0001 Items, ...) -- CPU is running -- CPU_ReadMem(4 bytes @ 0xE000EF40) - Data: 21 00 11 10  returns 0x01 (0000ms, 0608ms total)
T0ACC 000:686 JLINK_ReadMemU32(0xE000EF44, 0x0001 Items, ...) -- CPU is running -- CPU_ReadMem(4 bytes @ 0xE000EF44) - Data: 11 00 00 11  returns 0x01 (0001ms, 0609ms total)
T0ACC 000:687 JLINK_ReadMemU32(0xE000ED00, 0x0001 Items, ...) -- CPU is running -- CPU_ReadMem(4 bytes @ 0xE000ED00) - Data: 41 C2 0F 41  returns 0x01 (0000ms, 0609ms total)
T0ACC 000:687 JLINK_SetResetType(JLINKARM_RESET_TYPE_NORMAL)  returns JLINKARM_RESET_TYPE_NORMAL (0000ms, 0609ms total)
T0ACC 000:687 JLINK_Reset() -- CPU is running -- CPU_WriteMem(4 bytes @ 0xE000EDF0) -- CPU is running -- CPU_WriteMem(4 bytes @ 0xE000EDFC) >0x35 TIF> -- CPU is running -- CPU_WriteMem(4 bytes @ 0xE000ED0C) -- CPU is running -- CPU_ReadMem(4 bytes @ 0xE000EDF0) -- CPU is running -- CPU_ReadMem(4 bytes @ 0xE000EDF0) -- CPU is running -- CPU_WriteMem(4 bytes @ 0xE000EDF0) -- CPU is running -- CPU_WriteMem(4 bytes @ 0xE000EDFC) -- CPU is running -- CPU_ReadMem(4 bytes @ 0xE000EDF0)
 -- CPU_WriteMem(4 bytes @ 0xE0002000) -- CPU_ReadMem(4 bytes @ 0xE000EDFC) -- CPU_ReadMem(4 bytes @ 0xE0001000) (0017ms, 0626ms total)
T0ACC 000:704 JLINK_Halt()  returns 0x00 (0000ms, 0626ms total)
T0ACC 000:704 JLINK_IsHalted()  returns TRUE (0000ms, 0626ms total)
T0ACC 000:704 JLINK_ReadMemU32(0xE000EDF0, 0x0001 Items, ...) -- CPU_ReadMem(4 bytes @ 0xE000EDF0) - Data: 03 00 03 00  returns 0x01 (0000ms, 0626ms total)
T0ACC 000:704 JLINK_WriteU32(0xE000EDF0, 0xA05F0003) -- CPU_WriteMem(4 bytes @ 0xE000EDF0)  returns 0x00 (0001ms, 0627ms total)
T0ACC 000:705 JLINK_WriteU32(0xE000EDFC, 0x01000000) -- CPU_WriteMem(4 bytes @ 0xE000EDFC)  returns 0x00 (0000ms, 0627ms total)
T0ACC 000:721 JLINK_GetHWStatus(...)  returns 0x00 (0000ms, 0627ms total)
T0ACC 000:731 JLINK_GetNumBPUnits(Type = 0xFFFFFF00)  returns 0x06 (0000ms, 0627ms total)
T0ACC 000:731 JLINK_GetNumBPUnits(Type = 0xF0)  returns 0x2000 (0000ms, 0627ms total)
T0ACC 000:731 JLINK_GetNumWPUnits()  returns 0x04 (0001ms, 0628ms total)
T0ACC 000:743 JLINK_GetSpeed()  returns 0xFA0 (0000ms, 0628ms total)
T0ACC 000:748 JLINK_ReadMemU32(0xE000E004, 0x0001 Items, ...) -- CPU_ReadMem(4 bytes @ 0xE000E004) - Data: 02 00 00 00  returns 0x01 (0000ms, 0628ms total)
T0ACC 000:748 JLINK_ReadMemU32(0xE000E004, 0x0001 Items, ...) -- CPU_ReadMem(4 bytes @ 0xE000E004) - Data: 02 00 00 00  returns 0x01 (0001ms, 0629ms total)
T0ACC 000:749 JLINK_WriteMem(0xE0001000, 0x001C Bytes, ...) - Data: 01 00 00 00 00 00 00 00 00 00 00 00 00 00 00 00 ... -- CPU_WriteMem(28 bytes @ 0xE0001000)  returns 0x1C (0001ms, 0630ms total)
T0ACC 000:750 JLINK_ReadMem (0xE0001000, 0x001C Bytes, ...) -- CPU_ReadMem(28 bytes @ 0xE0001000) - Data: 01 00 00 40 00 00 00 00 00 00 00 00 00 00 00 00 ...  returns 0x00 (0001ms, 0631ms total)
T0ACC 000:751 JLINK_Halt()  returns 0x00 (0000ms, 0631ms total)
T0ACC 000:751 JLINK_IsHalted()  returns TRUE (0000ms, 0631ms total)
T0ACC 000:755 JLINK_WriteMem(0x20000000, 0x0180 Bytes, ...) - Data: 00 BE 0A E0 0D 78 2D 06 68 40 08 24 40 00 00 D3 ... -- CPU_WriteMem(384 bytes @ 0x20000000)  returns 0x180 (0004ms, 0635ms total)
T0ACC 000:759 JLINK_WriteReg(R0, 0x08000000)  returns 0x00 (0000ms, 0635ms total)
T0ACC 000:759 JLINK_WriteReg(R1, 0x00B71B00)  returns 0x00 (0000ms, 0635ms total)
T0ACC 000:759 JLINK_WriteReg(R2, 0x00000001)  returns 0x00 (0000ms, 0635ms total)
T0ACC 000:759 JLINK_WriteReg(R3, 0x00000000)  returns 0x00 (0000ms, 0635ms total)
T0ACC 000:759 JLINK_WriteReg(R4, 0x00000000)  returns 0x00 (0000ms, 0635ms total)
T0ACC 000:759 JLINK_WriteReg(R5, 0x00000000)  returns 0x00 (0000ms, 0635ms total)
T0ACC 000:759 JLINK_WriteReg(R6, 0x00000000)  returns 0x00 (0000ms, 0635ms total)
T0ACC 000:759 JLINK_WriteReg(R7, 0x00000000)  returns 0x00 (0000ms, 0635ms total)
T0ACC 000:759 JLINK_WriteReg(R8, 0x00000000)  returns 0x00 (0000ms, 0635ms total)
T0ACC 000:759 JLINK_WriteReg(R9, 0x2000017C)  returns 0x00 (0000ms, 0635ms total)
T0ACC 000:759 JLINK_WriteReg(R10, 0x00000000)  returns 0x00 (0000ms, 0635ms total)
T0ACC 000:759 JLINK_WriteReg(R11, 0x00000000)  returns 0x00 (0000ms, 0635ms total)
T0ACC 000:759 JLINK_WriteReg(R12, 0x00000000)  returns 0x00 (0000ms, 0635ms total)
T0ACC 000:759 JLINK_WriteReg(R13 (SP), 0x20001000)  returns 0x00 (0000ms, 0635ms total)
T0ACC 000:759 JLINK_WriteReg(R14, 0x20000001)  returns 0x00 (0000ms, 0635ms total)
T0ACC 000:759 JLINK_WriteReg(R15 (PC), 0x20000054)  returns 0x00 (0000ms, 0635ms total)
T0ACC 000:759 JLINK_WriteReg(XPSR, 0x01000000)  returns 0x00 (0000ms, 0635ms total)
T0ACC 000:759 JLINK_WriteReg(MSP, 0x20001000)  returns 0x00 (0000ms, 0635ms total)
T0ACC 000:759 JLINK_WriteReg(PSP, 0x20001000)  returns 0x00 (0000ms, 0635ms total)
T0ACC 000:759 JLINK_WriteReg(CFBP, 0x00000000)  returns 0x00 (0000ms, 0635ms total)
T0ACC 000:759 JLINK_SetBPEx(Addr = 0x20000000, Type = 0xFFFFFFF2) -- CPU_ReadMem(4 bytes @ 0x20000000) -- CPU_WriteMem(4 bytes @ 0x20000000) -- CPU_ReadMem(4 bytes @ 0x20000000) -- CPU_WriteMem(4 bytes @ 0x20000000) -- CPU_ReadMem(2 bytes @ 0x20000000)  returns 0x00000001 (0003ms, 0638ms total)
T0ACC 000:762 JLINK_Go() -- CPU_WriteMem(2 bytes @ 0x20000000) -- CPU_WriteMem(4 bytes @ 0xE0002008) -- CPU_WriteMem(4 bytes @ 0xE000200C) -- CPU_WriteMem(4 bytes @ 0xE0002010) -- CPU_WriteMem(4 bytes @ 0xE0002014) -- CPU_WriteMem(4 bytes @ 0xE0002018) -- CPU_WriteMem(4 bytes @ 0xE000201C) -- CPU_WriteMem(4 bytes @ 0xE0001004) (0005ms, 0643ms total)
T0ACC 000:767 JLINK_IsHalted() -- CPU_ReadMem(2 bytes @ 0x20000000)  returns TRUE (0003ms, 0646ms total)
T0ACC 000:770 JLINK_ReadReg(R15 (PC))  returns 0x20000000 (0000ms, 0643ms total)
T0ACC 000:770 JLINK_ClrBPEx(BPHandle = 0x00000001)  returns 0x00 (0000ms, 0643ms total)
T0ACC 000:770 JLINK_ReadReg(R0)  returns 0x00000000 (0000ms, 0643ms total)
T0ACC 000:770 JLINK_WriteReg(R0, 0x08000000)  returns 0x00 (0000ms, 0643ms total)
T0ACC 000:770 JLINK_WriteReg(R1, 0x00004000)  returns 0x00 (0000ms, 0643ms total)
T0ACC 000:770 JLINK_WriteReg(R2, 0x000000FF)  returns 0x00 (0000ms, 0643ms total)
T0ACC 000:770 JLINK_WriteReg(R3, 0x00000000)  returns 0x00 (0000ms, 0643ms total)
T0ACC 000:770 JLINK_WriteReg(R4, 0x00000000)  returns 0x00 (0000ms, 0643ms total)
T0ACC 000:770 JLINK_WriteReg(R5, 0x00000000)  returns 0x00 (0000ms, 0643ms total)
T0ACC 000:770 JLINK_WriteReg(R6, 0x00000000)  returns 0x00 (0000ms, 0643ms total)
T0ACC 000:770 JLINK_WriteReg(R7, 0x00000000)  returns 0x00 (0000ms, 0643ms total)
T0ACC 000:770 JLINK_WriteReg(R8, 0x00000000)  returns 0x00 (0000ms, 0643ms total)
T0ACC 000:770 JLINK_WriteReg(R9, 0x2000017C)  returns 0x00 (0000ms, 0643ms total)
T0ACC 000:770 JLINK_WriteReg(R10, 0x00000000)  returns 0x00 (0000ms, 0643ms total)
T0ACC 000:770 JLINK_WriteReg(R11, 0x00000000)  returns 0x00 (0000ms, 0643ms total)
T0ACC 000:770 JLINK_WriteReg(R12, 0x00000000)  returns 0x00 (0000ms, 0643ms total)
T0ACC 000:770 JLINK_WriteReg(R13 (SP), 0x20001000)  returns 0x00 (0000ms, 0643ms total)
T0ACC 000:770 JLINK_WriteReg(R14, 0x20000001)  returns 0x00 (0000ms, 0643ms total)
T0ACC 000:770 JLINK_WriteReg(R15 (PC), 0x20000020)  returns 0x00 (0000ms, 0643ms total)
T0ACC 000:770 JLINK_WriteReg(XPSR, 0x01000000)  returns 0x00 (0000ms, 0643ms total)
T0ACC 000:770 JLINK_WriteReg(MSP, 0x20001000)  returns 0x00 (0000ms, 0643ms total)
T0ACC 000:770 JLINK_WriteReg(PSP, 0x20001000)  returns 0x00 (0000ms, 0643ms total)
T0ACC 000:770 JLINK_WriteReg(CFBP, 0x00000000)  returns 0x00 (0000ms, 0643ms total)
T0ACC 000:770 JLINK_SetBPEx(Addr = 0x20000000, Type = 0xFFFFFFF2)  returns 0x00000002 (0000ms, 0643ms total)
T0ACC 000:770 JLINK_Go() (0002ms, 0645ms total)
T0ACC 000:772 JLINK_IsHalted() -- CPU_ReadMem(2 bytes @ 0x20000000)  returns TRUE (0003ms, 0648ms total)
T0ACC 000:775 JLINK_ReadReg(R15 (PC))  returns 0x20000000 (0000ms, 0645ms total)
T0ACC 000:775 JLINK_ClrBPEx(BPHandle = 0x00000002)  returns 0x00 (0000ms, 0645ms total)
T0ACC 000:775 JLINK_ReadReg(R0)  returns 0x00000001 (0000ms, 0645ms total)
T0ACC 000:775 JLINK_WriteReg(R0, 0x08000000)  returns 0x00 (0000ms, 0645ms total)
T0ACC 000:775 JLINK_WriteReg(R1, 0x00004000)  returns 0x00 (0000ms, 0645ms total)
T0ACC 000:775 JLINK_WriteReg(R2, 0x000000FF)  returns 0x00 (0000ms, 0645ms total)
T0ACC 000:775 JLINK_WriteReg(R3, 0x00000000)  returns 0x00 (0000ms, 0645ms total)
T0ACC 000:775 JLINK_WriteReg(R4, 0x00000000)  returns 0x00 (0000ms, 0645ms total)
T0ACC 000:775 JLINK_WriteReg(R5, 0x00000000)  returns 0x00 (0000ms, 0645ms total)
T0ACC 000:775 JLINK_WriteReg(R6, 0x00000000)  returns 0x00 (0000ms, 0645ms total)
T0ACC 000:775 JLINK_WriteReg(R7, 0x00000000)  returns 0x00 (0000ms, 0645ms total)
T0ACC 000:775 JLINK_WriteReg(R8, 0x00000000)  returns 0x00 (0000ms, 0645ms total)
T0ACC 000:775 JLINK_WriteReg(R9, 0x2000017C)  returns 0x00 (0000ms, 0645ms total)
T0ACC 000:775 JLINK_WriteReg(R10, 0x00000000)  returns 0x00 (0000ms, 0645ms total)
T0ACC 000:775 JLINK_WriteReg(R11, 0x00000000)  returns 0x00 (0000ms, 0645ms total)
T0ACC 000:775 JLINK_WriteReg(R12, 0x00000000)  returns 0x00 (0000ms, 0645ms total)
T0ACC 000:775 JLINK_WriteReg(R13 (SP), 0x20001000)  returns 0x00 (0000ms, 0645ms total)
T0ACC 000:775 JLINK_WriteReg(R14, 0x20000001)  returns 0x00 (0000ms, 0645ms total)
T0ACC 000:775 JLINK_WriteReg(R15 (PC), 0x200000BC)  returns 0x00 (0000ms, 0645ms total)
T0ACC 000:775 JLINK_WriteReg(XPSR, 0x01000000)  returns 0x00 (0000ms, 0645ms total)
T0ACC 000:775 JLINK_WriteReg(MSP, 0x20001000)  returns 0x00 (0000ms, 0645ms total)
T0ACC 000:775 JLINK_WriteReg(PSP, 0x20001000)  returns 0x00 (0000ms, 0645ms total)
T0ACC 000:775 JLINK_WriteReg(CFBP, 0x00000000)  returns 0x00 (0001ms, 0646ms total)
T0ACC 000:776 JLINK_SetBPEx(Addr = 0x20000000, Type = 0xFFFFFFF2)  returns 0x00000003 (0000ms, 0646ms total)
T0ACC 000:776 JLINK_Go() (0002ms, 0648ms total)
T0ACC 000:778 JLINK_IsHalted()  returns FALSE (0000ms, 0648ms total)
T0ACC 000:898 JLINK_IsHalted()  returns FALSE (0000ms, 0648ms total)
T0ACC 000:899 JLINK_IsHalted()  returns FALSE (0000ms, 0648ms total)
T0ACC 000:901 JLINK_IsHalted()  returns FALSE (0000ms, 0648ms total)
T0ACC 000:903 JLINK_IsHalted()  returns FALSE (0000ms, 0648ms total)
T0ACC 000:905 JLINK_IsHalted()  returns FALSE (0000ms, 0648ms total)
T0ACC 000:906 JLINK_IsHalted()  returns FALSE (0000ms, 0648ms total)
T0ACC 000:913 JLINK_IsHalted()  returns FALSE (0000ms, 0648ms total)
T0ACC 000:915 JLINK_IsHalted()  returns FALSE (0000ms, 0648ms total)
T0ACC 000:917 JLINK_IsHalted()  returns FALSE (0000ms, 0648ms total)
T0ACC 000:918 JLINK_IsHalted()  returns FALSE (0000ms, 0648ms total)
T0ACC 000:920 JLINK_IsHalted()  returns FALSE (0000ms, 0648ms total)
T0ACC 000:922 JLINK_IsHalted()  returns FALSE (0000ms, 0648ms total)
T0ACC 000:924 JLINK_IsHalted()  returns FALSE (0000ms, 0648ms total)
T0ACC 000:930 JLINK_IsHalted()  returns FALSE (0000ms, 0648ms total)
T0ACC 000:932 JLINK_IsHalted()  returns FALSE (0000ms, 0648ms total)
T0ACC 000:933 JLINK_IsHalted()  returns FALSE (0001ms, 0649ms total)
T0ACC 000:935 JLINK_IsHalted()  returns FALSE (0001ms, 0649ms total)
T0ACC 000:938 JLINK_IsHalted()  returns FALSE (0000ms, 0648ms total)
T0ACC 000:940 JLINK_IsHalted()  returns FALSE (0000ms, 0648ms total)
T0ACC 000:945 JLINK_IsHalted()  returns FALSE (0000ms, 0648ms total)
T0ACC 000:947 JLINK_IsHalted()  returns FALSE (0000ms, 0648ms total)
T0ACC 000:949 JLINK_IsHalted()  returns FALSE (0000ms, 0648ms total)
T0ACC 000:951 JLINK_IsHalted()  returns FALSE (0000ms, 0648ms total)
T0ACC 000:953 JLINK_IsHalted()  returns FALSE (0000ms, 0648ms total)
T0ACC 000:962 JLINK_IsHalted()  returns FALSE (0000ms, 0648ms total)
T0ACC 000:964 JLINK_IsHalted()  returns FALSE (0000ms, 0648ms total)
T0ACC 000:966 JLINK_IsHalted()  returns FALSE (0000ms, 0648ms total)
T0ACC 000:968 JLINK_IsHalted()  returns FALSE (0000ms, 0648ms total)
T0ACC 000:970 JLINK_IsHalted()  returns FALSE (0000ms, 0648ms total)
T0ACC 000:978 JLINK_IsHalted()  returns FALSE (0001ms, 0649ms total)
T0ACC 000:980 JLINK_IsHalted()  returns FALSE (0000ms, 0648ms total)
T0ACC 000:982 JLINK_IsHalted()  returns FALSE (0000ms, 0648ms total)
T0ACC 000:984 JLINK_IsHalted()  returns FALSE (0000ms, 0648ms total)
T0ACC 000:992 JLINK_IsHalted()  returns FALSE (0000ms, 0648ms total)
T0ACC 000:994 JLINK_IsHalted()  returns FALSE (0000ms, 0648ms total)
T0ACC 000:995 JLINK_IsHalted()  returns FALSE (0000ms, 0648ms total)
T0ACC 000:997 JLINK_IsHalted()  returns FALSE (0001ms, 0649ms total)
T0ACC 000:999 JLINK_IsHalted()  returns FALSE (0000ms, 0648ms total)
T0ACC 001:001 JLINK_IsHalted()  returns FALSE (0000ms, 0648ms total)
T0ACC 001:005 JLINK_IsHalted()  returns FALSE (0001ms, 0649ms total)
T0ACC 001:007 JLINK_IsHalted()  returns FALSE (0000ms, 0648ms total)
T0ACC 001:009 JLINK_IsHalted()  returns FALSE (0000ms, 0648ms total)
T0ACC 001:010 JLINK_IsHalted()  returns FALSE (0000ms, 0648ms total)
T0ACC 001:012 JLINK_IsHalted()  returns FALSE (0000ms, 0648ms total)
T0ACC 001:013 JLINK_IsHalted()  returns FALSE (0000ms, 0648ms total)
T0ACC 001:015 JLINK_IsHalted()  returns FALSE (0000ms, 0648ms total)
T0ACC 001:017 JLINK_IsHalted()  returns FALSE (0000ms, 0648ms total)
T0ACC 001:018 JLINK_IsHalted()  returns FALSE (0000ms, 0648ms total)
T0ACC 001:020 JLINK_IsHalted()  returns FALSE (0001ms, 0649ms total)
T0ACC 001:022 JLINK_IsHalted()  returns FALSE (0000ms, 0648ms total)
T0ACC 001:026 JLINK_IsHalted()  returns FALSE (0001ms, 0649ms total)
T0ACC 001:028 JLINK_IsHalted()  returns FALSE (0000ms, 0648ms total)
T0ACC 001:030 JLINK_IsHalted()  returns FALSE (0000ms, 0648ms total)
T0ACC 001:032 JLINK_IsHalted()  returns FALSE (0000ms, 0648ms total)
T0ACC 001:036 JLINK_IsHalted()  returns FALSE (0000ms, 0648ms total)
T0ACC 001:037 JLINK_IsHalted()  returns FALSE (0001ms, 0649ms total)
T0ACC 001:039 JLINK_IsHalted()  returns FALSE (0001ms, 0649ms total)
T0ACC 001:041 JLINK_IsHalted()  returns FALSE (0000ms, 0648ms total)
T0ACC 001:043 JLINK_IsHalted()  returns FALSE (0000ms, 0648ms total)
T0ACC 001:044 JLINK_IsHalted()  returns FALSE (0000ms, 0648ms total)
T0ACC 001:046 JLINK_IsHalted()  returns FALSE (0001ms, 0649ms total)
T0ACC 001:048 JLINK_IsHalted()  returns FALSE (0000ms, 0648ms total)
T0ACC 001:054 JLINK_IsHalted()  returns FALSE (0000ms, 0648ms total)
T0ACC 001:056 JLINK_IsHalted()  returns FALSE (0000ms, 0648ms total)
T0ACC 001:058 JLINK_IsHalted()  returns FALSE (0000ms, 0648ms total)
T0ACC 001:060 JLINK_IsHalted()  returns FALSE (0002ms, 0650ms total)
T0ACC 001:063 JLINK_IsHalted()  returns FALSE (0001ms, 0649ms total)
T0ACC 001:065 JLINK_IsHalted()  returns FALSE (0000ms, 0648ms total)
T0ACC 001:074 JLINK_IsHalted()  returns FALSE (0000ms, 0648ms total)
T0ACC 001:075 JLINK_IsHalted()  returns FALSE (0000ms, 0648ms total)
T0ACC 001:077 JLINK_IsHalted()  returns FALSE (0000ms, 0648ms total)
T0ACC 001:079 JLINK_IsHalted()  returns FALSE (0000ms, 0648ms total)
T0ACC 001:080 JLINK_IsHalted()  returns FALSE (0000ms, 0648ms total)
T0ACC 001:082 JLINK_IsHalted()  returns FALSE (0000ms, 0648ms total)
T0ACC 001:084 JLINK_IsHalted()  returns FALSE (0000ms, 0648ms total)
T0ACC 001:088 JLINK_IsHalted()  returns FALSE (0001ms, 0649ms total)
T0ACC 001:090 JLINK_IsHalted()  returns FALSE (0001ms, 0649ms total)
T0ACC 001:092 JLINK_IsHalted()  returns FALSE (0000ms, 0648ms total)
T0ACC 001:094 JLINK_IsHalted()  returns FALSE (0000ms, 0648ms total)
T0ACC 001:101 JLINK_IsHalted()  returns FALSE (0000ms, 0648ms total)
T0ACC 001:102 JLINK_IsHalted()  returns FALSE (0000ms, 0648ms total)
T0ACC 001:104 JLINK_IsHalted()  returns FALSE (0000ms, 0648ms total)
T0ACC 001:106 JLINK_IsHalted()  returns FALSE (0000ms, 0648ms total)
T0ACC 001:108 JLINK_IsHalted()  returns FALSE (0000ms, 0648ms total)
T0ACC 001:110 JLINK_IsHalted()  returns FALSE (0000ms, 0648ms total)
T0ACC 001:117 JLINK_IsHalted()  returns FALSE (0000ms, 0648ms total)
T0ACC 001:119 JLINK_IsHalted()  returns FALSE (0000ms, 0648ms total)
T0ACC 001:120 JLINK_IsHalted()  returns FALSE (0000ms, 0648ms total)
T0ACC 001:122 JLINK_IsHalted()  returns FALSE (0000ms, 0648ms total)
T0ACC 001:124 JLINK_IsHalted() -- CPU_ReadMem(2 bytes @ 0x20000000)  returns TRUE (0002ms, 0650ms total)
T0ACC 001:126 JLINK_ReadReg(R15 (PC))  returns 0x20000000 (0000ms, 0648ms total)
T0ACC 001:126 JLINK_ClrBPEx(BPHandle = 0x00000003)  returns 0x00 (0000ms, 0648ms total)
T0ACC 001:126 JLINK_ReadReg(R0)  returns 0x00000000 (0000ms, 0648ms total)
T0ACC 001:127 JLINK_WriteReg(R0, 0x00000001)  returns 0x00 (0000ms, 0648ms total)
T0ACC 001:127 JLINK_WriteReg(R1, 0x00004000)  returns 0x00 (0000ms, 0648ms total)
T0ACC 001:127 JLINK_WriteReg(R2, 0x000000FF)  returns 0x00 (0000ms, 0648ms total)
T0ACC 001:127 JLINK_WriteReg(R3, 0x00000000)  returns 0x00 (0000ms, 0648ms total)
T0ACC 001:127 JLINK_WriteReg(R4, 0x00000000)  returns 0x00 (0000ms, 0648ms total)
T0ACC 001:127 JLINK_WriteReg(R5, 0x00000000)  returns 0x00 (0000ms, 0648ms total)
T0ACC 001:127 JLINK_WriteReg(R6, 0x00000000)  returns 0x00 (0000ms, 0648ms total)
T0ACC 001:127 JLINK_WriteReg(R7, 0x00000000)  returns 0x00 (0000ms, 0648ms total)
T0ACC 001:127 JLINK_WriteReg(R8, 0x00000000)  returns 0x00 (0000ms, 0648ms total)
T0ACC 001:127 JLINK_WriteReg(R9, 0x2000017C)  returns 0x00 (0000ms, 0648ms total)
T0ACC 001:127 JLINK_WriteReg(R10, 0x00000000)  returns 0x00 (0000ms, 0648ms total)
T0ACC 001:127 JLINK_WriteReg(R11, 0x00000000)  returns 0x00 (0000ms, 0648ms total)
T0ACC 001:127 JLINK_WriteReg(R12, 0x00000000)  returns 0x00 (0000ms, 0648ms total)
T0ACC 001:127 JLINK_WriteReg(R13 (SP), 0x20001000)  returns 0x00 (0000ms, 0648ms total)
T0ACC 001:127 JLINK_WriteReg(R14, 0x20000001)  returns 0x00 (0000ms, 0648ms total)
T0ACC 001:127 JLINK_WriteReg(R15 (PC), 0x20000082)  returns 0x00 (0000ms, 0648ms total)
T0ACC 001:127 JLINK_WriteReg(XPSR, 0x01000000)  returns 0x00 (0000ms, 0648ms total)
T0ACC 001:127 JLINK_WriteReg(MSP, 0x20001000)  returns 0x00 (0000ms, 0648ms total)
T0ACC 001:127 JLINK_WriteReg(PSP, 0x20001000)  returns 0x00 (0000ms, 0648ms total)
T0ACC 001:127 JLINK_WriteReg(CFBP, 0x00000000)  returns 0x00 (0000ms, 0648ms total)
T0ACC 001:127 JLINK_SetBPEx(Addr = 0x20000000, Type = 0xFFFFFFF2)  returns 0x00000004 (0000ms, 0648ms total)
T0ACC 001:127 JLINK_Go() (0002ms, 0650ms total)
T0ACC 001:129 JLINK_IsHalted() -- CPU_ReadMem(2 bytes @ 0x20000000)  returns TRUE (0002ms, 0652ms total)
T0ACC 001:131 JLINK_ReadReg(R15 (PC))  returns 0x20000000 (0000ms, 0650ms total)
T0ACC 001:131 JLINK_ClrBPEx(BPHandle = 0x00000004)  returns 0x00 (0000ms, 0650ms total)
T0ACC 001:131 JLINK_ReadReg(R0)  returns 0x00000000 (0000ms, 0650ms total)
T0ACC 001:191 JLINK_WriteMem(0x20000000, 0x0180 Bytes, ...) - Data: 00 BE 0A E0 0D 78 2D 06 68 40 08 24 40 00 00 D3 ... -- CPU_WriteMem(384 bytes @ 0x20000000)  returns 0x180 (0003ms, 0653ms total)
T0ACC 001:194 JLINK_WriteReg(R0, 0x08000000)  returns 0x00 (0000ms, 0653ms total)
T0ACC 001:194 JLINK_WriteReg(R1, 0x00B71B00)  returns 0x00 (0000ms, 0653ms total)
T0ACC 001:194 JLINK_WriteReg(R2, 0x00000002)  returns 0x00 (0000ms, 0653ms total)
T0ACC 001:194 JLINK_WriteReg(R3, 0x00000000)  returns 0x00 (0000ms, 0653ms total)
T0ACC 001:194 JLINK_WriteReg(R4, 0x00000000)  returns 0x00 (0000ms, 0653ms total)
T0ACC 001:194 JLINK_WriteReg(R5, 0x00000000)  returns 0x00 (0000ms, 0653ms total)
T0ACC 001:194 JLINK_WriteReg(R6, 0x00000000)  returns 0x00 (0000ms, 0653ms total)
T0ACC 001:194 JLINK_WriteReg(R7, 0x00000000)  returns 0x00 (0000ms, 0653ms total)
T0ACC 001:194 JLINK_WriteReg(R8, 0x00000000)  returns 0x00 (0000ms, 0653ms total)
T0ACC 001:194 JLINK_WriteReg(R9, 0x2000017C)  returns 0x00 (0001ms, 0654ms total)
T0ACC 001:195 JLINK_WriteReg(R10, 0x00000000)  returns 0x00 (0000ms, 0654ms total)
T0ACC 001:195 JLINK_WriteReg(R11, 0x00000000)  returns 0x00 (0000ms, 0654ms total)
T0ACC 001:195 JLINK_WriteReg(R12, 0x00000000)  returns 0x00 (0000ms, 0654ms total)
T0ACC 001:195 JLINK_WriteReg(R13 (SP), 0x20001000)  returns 0x00 (0000ms, 0654ms total)
T0ACC 001:195 JLINK_WriteReg(R14, 0x20000001)  returns 0x00 (0000ms, 0654ms total)
T0ACC 001:195 JLINK_WriteReg(R15 (PC), 0x20000054)  returns 0x00 (0000ms, 0654ms total)
T0ACC 001:195 JLINK_WriteReg(XPSR, 0x01000000)  returns 0x00 (0000ms, 0654ms total)
T0ACC 001:195 JLINK_WriteReg(MSP, 0x20001000)  returns 0x00 (0000ms, 0654ms total)
T0ACC 001:195 JLINK_WriteReg(PSP, 0x20001000)  returns 0x00 (0000ms, 0654ms total)
T0ACC 001:195 JLINK_WriteReg(CFBP, 0x00000000)  returns 0x00 (0000ms, 0654ms total)
T0ACC 001:195 JLINK_SetBPEx(Addr = 0x20000000, Type = 0xFFFFFFF2) -- CPU_ReadMem(4 bytes @ 0x20000000) -- CPU_WriteMem(4 bytes @ 0x20000000) -- CPU_ReadMem(4 bytes @ 0x20000000) -- CPU_WriteMem(4 bytes @ 0x20000000) -- CPU_ReadMem(2 bytes @ 0x20000000)  returns 0x00000005 (0002ms, 0656ms total)
T0ACC 001:197 JLINK_Go() -- CPU_WriteMem(2 bytes @ 0x20000000) (0001ms, 0657ms total)
T0ACC 001:198 JLINK_IsHalted() -- CPU_ReadMem(2 bytes @ 0x20000000)  returns TRUE (0003ms, 0660ms total)
T0ACC 001:201 JLINK_ReadReg(R15 (PC))  returns 0x20000000 (0000ms, 0657ms total)
T0ACC 001:201 JLINK_ClrBPEx(BPHandle = 0x00000005)  returns 0x00 (0000ms, 0657ms total)
T0ACC 001:201 JLINK_ReadReg(R0)  returns 0x00000000 (0000ms, 0657ms total)
T0ACC 001:201 JLINK_WriteMem(0x20000180, 0x0400 Bytes, ...) - Data: A8 47 00 20 E9 0E 00 08 C1 06 00 08 C3 06 00 08 ... -- CPU_WriteMem(1024 bytes @ 0x20000180)  returns 0x400 (0007ms, 0664ms total)
T0ACC 001:208 JLINK_WriteReg(R0, 0x08000000)  returns 0x00 (0000ms, 0664ms total)
T0ACC 001:208 JLINK_WriteReg(R1, 0x00000400)  returns 0x00 (0000ms, 0664ms total)
T0ACC 001:208 JLINK_WriteReg(R2, 0x20000180)  returns 0x00 (0000ms, 0664ms total)
T0ACC 001:208 JLINK_WriteReg(R3, 0x00000000)  returns 0x00 (0000ms, 0664ms total)
T0ACC 001:208 JLINK_WriteReg(R4, 0x00000000)  returns 0x00 (0000ms, 0664ms total)
T0ACC 001:208 JLINK_WriteReg(R5, 0x00000000)  returns 0x00 (0000ms, 0664ms total)
T0ACC 001:208 JLINK_WriteReg(R6, 0x00000000)  returns 0x00 (0000ms, 0664ms total)
T0ACC 001:208 JLINK_WriteReg(R7, 0x00000000)  returns 0x00 (0000ms, 0664ms total)
T0ACC 001:208 JLINK_WriteReg(R8, 0x00000000)  returns 0x00 (0000ms, 0664ms total)
T0ACC 001:208 JLINK_WriteReg(R9, 0x2000017C)  returns 0x00 (0000ms, 0664ms total)
T0ACC 001:208 JLINK_WriteReg(R10, 0x00000000)  returns 0x00 (0000ms, 0664ms total)
T0ACC 001:208 JLINK_WriteReg(R11, 0x00000000)  returns 0x00 (0000ms, 0664ms total)
T0ACC 001:208 JLINK_WriteReg(R12, 0x00000000)  returns 0x00 (0000ms, 0664ms total)
T0ACC 001:208 JLINK_WriteReg(R13 (SP), 0x20001000)  returns 0x00 (0000ms, 0664ms total)
T0ACC 001:208 JLINK_WriteReg(R14, 0x20000001)  returns 0x00 (0000ms, 0664ms total)
T0ACC 001:208 JLINK_WriteReg(R15 (PC), 0x20000108)  returns 0x00 (0000ms, 0664ms total)
T0ACC 001:208 JLINK_WriteReg(XPSR, 0x01000000)  returns 0x00 (0000ms, 0664ms total)
T0ACC 001:208 JLINK_WriteReg(MSP, 0x20001000)  returns 0x00 (0000ms, 0664ms total)
T0ACC 001:208 JLINK_WriteReg(PSP, 0x20001000)  returns 0x00 (0000ms, 0664ms total)
T0ACC 001:208 JLINK_WriteReg(CFBP, 0x00000000)  returns 0x00 (0000ms, 0664ms total)
T0ACC 001:208 JLINK_SetBPEx(Addr = 0x20000000, Type = 0xFFFFFFF2)  returns 0x00000006 (0000ms, 0664ms total)
T0ACC 001:208 JLINK_Go() (0002ms, 0666ms total)
T0ACC 001:210 JLINK_IsHalted()  returns FALSE (0000ms, 0666ms total)
T0ACC 001:223 JLINK_IsHalted() -- CPU_ReadMem(2 bytes @ 0x20000000)  returns TRUE (0002ms, 0668ms total)
T0ACC 001:225 JLINK_ReadReg(R15 (PC))  returns 0x20000000 (0000ms, 0666ms total)
T0ACC 001:225 JLINK_ClrBPEx(BPHandle = 0x00000006)  returns 0x00 (0000ms, 0666ms total)
T0ACC 001:225 JLINK_ReadReg(R0)  returns 0x00000000 (0000ms, 0666ms total)
T0ACC 001:226 JLINK_WriteMem(0x20000180, 0x0400 Bytes, ...) - Data: 00 24 05 E0 84 49 11 F8 14 00 00 F0 00 FD 64 1C ... -- CPU_WriteMem(1024 bytes @ 0x20000180)  returns 0x400 (0007ms, 0673ms total)
T0ACC 001:233 JLINK_WriteReg(R0, 0x08000400)  returns 0x00 (0000ms, 0673ms total)
T0ACC 001:233 JLINK_WriteReg(R1, 0x00000400)  returns 0x00 (0000ms, 0673ms total)
T0ACC 001:233 JLINK_WriteReg(R2, 0x20000180)  returns 0x00 (0000ms, 0673ms total)
T0ACC 001:233 JLINK_WriteReg(R3, 0x00000000)  returns 0x00 (0000ms, 0673ms total)
T0ACC 001:233 JLINK_WriteReg(R4, 0x00000000)  returns 0x00 (0000ms, 0673ms total)
T0ACC 001:233 JLINK_WriteReg(R5, 0x00000000)  returns 0x00 (0000ms, 0673ms total)
T0ACC 001:233 JLINK_WriteReg(R6, 0x00000000)  returns 0x00 (0000ms, 0673ms total)
T0ACC 001:233 JLINK_WriteReg(R7, 0x00000000)  returns 0x00 (0000ms, 0673ms total)
T0ACC 001:233 JLINK_WriteReg(R8, 0x00000000)  returns 0x00 (0000ms, 0673ms total)
T0ACC 001:233 JLINK_WriteReg(R9, 0x2000017C)  returns 0x00 (0000ms, 0673ms total)
T0ACC 001:233 JLINK_WriteReg(R10, 0x00000000)  returns 0x00 (0000ms, 0673ms total)
T0ACC 001:233 JLINK_WriteReg(R11, 0x00000000)  returns 0x00 (0000ms, 0673ms total)
T0ACC 001:233 JLINK_WriteReg(R12, 0x00000000)  returns 0x00 (0000ms, 0673ms total)
T0ACC 001:233 JLINK_WriteReg(R13 (SP), 0x20001000)  returns 0x00 (0000ms, 0673ms total)
T0ACC 001:233 JLINK_WriteReg(R14, 0x20000001)  returns 0x00 (0000ms, 0673ms total)
T0ACC 001:233 JLINK_WriteReg(R15 (PC), 0x20000108)  returns 0x00 (0000ms, 0673ms total)
T0ACC 001:233 JLINK_WriteReg(XPSR, 0x01000000)  returns 0x00 (0000ms, 0673ms total)
T0ACC 001:233 JLINK_WriteReg(MSP, 0x20001000)  returns 0x00 (0000ms, 0673ms total)
T0ACC 001:233 JLINK_WriteReg(PSP, 0x20001000)  returns 0x00 (0000ms, 0673ms total)
T0ACC 001:233 JLINK_WriteReg(CFBP, 0x00000000)  returns 0x00 (0000ms, 0673ms total)
T0ACC 001:233 JLINK_SetBPEx(Addr = 0x20000000, Type = 0xFFFFFFF2)  returns 0x00000007 (0000ms, 0673ms total)
T0ACC 001:233 JLINK_Go() (0002ms, 0675ms total)
T0ACC 001:235 JLINK_IsHalted()  returns FALSE (0000ms, 0675ms total)
T0ACC 001:237 JLINK_IsHalted()  returns FALSE (0000ms, 0675ms total)
T0ACC 001:242 JLINK_IsHalted() -- CPU_ReadMem(2 bytes @ 0x20000000)  returns TRUE (0002ms, 0677ms total)
T0ACC 001:244 JLINK_ReadReg(R15 (PC))  returns 0x20000000 (0000ms, 0675ms total)
T0ACC 001:244 JLINK_ClrBPEx(BPHandle = 0x00000007)  returns 0x00 (0000ms, 0675ms total)
T0ACC 001:244 JLINK_ReadReg(R0)  returns 0x00000000 (0000ms, 0675ms total)
T0ACC 001:245 JLINK_WriteMem(0x20000180, 0x0400 Bytes, ...) - Data: FF F7 6C FF 4F F0 00 60 31 49 80 39 08 60 10 BD ... -- CPU_WriteMem(1024 bytes @ 0x20000180)  returns 0x400 (0006ms, 0681ms total)
T0ACC 001:251 JLINK_WriteReg(R0, 0x08000800)  returns 0x00 (0001ms, 0682ms total)
T0ACC 001:252 JLINK_WriteReg(R1, 0x00000400)  returns 0x00 (0000ms, 0682ms total)
T0ACC 001:252 JLINK_WriteReg(R2, 0x20000180)  returns 0x00 (0000ms, 0682ms total)
T0ACC 001:252 JLINK_WriteReg(R3, 0x00000000)  returns 0x00 (0000ms, 0682ms total)
T0ACC 001:252 JLINK_WriteReg(R4, 0x00000000)  returns 0x00 (0000ms, 0682ms total)
T0ACC 001:252 JLINK_WriteReg(R5, 0x00000000)  returns 0x00 (0000ms, 0682ms total)
T0ACC 001:252 JLINK_WriteReg(R6, 0x00000000)  returns 0x00 (0000ms, 0682ms total)
T0ACC 001:252 JLINK_WriteReg(R7, 0x00000000)  returns 0x00 (0000ms, 0682ms total)
T0ACC 001:252 JLINK_WriteReg(R8, 0x00000000)  returns 0x00 (0000ms, 0682ms total)
T0ACC 001:252 JLINK_WriteReg(R9, 0x2000017C)  returns 0x00 (0000ms, 0682ms total)
T0ACC 001:252 JLINK_WriteReg(R10, 0x00000000)  returns 0x00 (0000ms, 0682ms total)
T0ACC 001:252 JLINK_WriteReg(R11, 0x00000000)  returns 0x00 (0000ms, 0682ms total)
T0ACC 001:252 JLINK_WriteReg(R12, 0x00000000)  returns 0x00 (0000ms, 0682ms total)
T0ACC 001:252 JLINK_WriteReg(R13 (SP), 0x20001000)  returns 0x00 (0000ms, 0682ms total)
T0ACC 001:252 JLINK_WriteReg(R14, 0x20000001)  returns 0x00 (0000ms, 0682ms total)
T0ACC 001:252 JLINK_WriteReg(R15 (PC), 0x20000108)  returns 0x00 (0000ms, 0682ms total)
T0ACC 001:252 JLINK_WriteReg(XPSR, 0x01000000)  returns 0x00 (0001ms, 0683ms total)
T0ACC 001:253 JLINK_WriteReg(MSP, 0x20001000)  returns 0x00 (0000ms, 0683ms total)
T0ACC 001:253 JLINK_WriteReg(PSP, 0x20001000)  returns 0x00 (0000ms, 0683ms total)
T0ACC 001:253 JLINK_WriteReg(CFBP, 0x00000000)  returns 0x00 (0000ms, 0683ms total)
T0ACC 001:253 JLINK_SetBPEx(Addr = 0x20000000, Type = 0xFFFFFFF2)  returns 0x00000008 (0000ms, 0683ms total)
T0ACC 001:253 JLINK_Go() (0001ms, 0684ms total)
T0ACC 001:254 JLINK_IsHalted()  returns FALSE (0001ms, 0685ms total)
T0ACC 001:263 JLINK_IsHalted() -- CPU_ReadMem(2 bytes @ 0x20000000)  returns TRUE (0004ms, 0688ms total)
T0ACC 001:267 JLINK_ReadReg(R15 (PC))  returns 0x20000000 (0000ms, 0684ms total)
T0ACC 001:267 JLINK_ClrBPEx(BPHandle = 0x00000008)  returns 0x00 (0000ms, 0684ms total)
T0ACC 001:267 JLINK_ReadReg(R0)  returns 0x00000000 (0000ms, 0684ms total)
T0ACC 001:270 JLINK_WriteMem(0x20000180, 0x0400 Bytes, ...) - Data: 06 A9 A2 48 00 F0 86 FA 40 20 06 90 02 20 8D F8 ... -- CPU_WriteMem(1024 bytes @ 0x20000180)  returns 0x400 (0007ms, 0691ms total)
T0ACC 001:277 JLINK_WriteReg(R0, 0x08000C00)  returns 0x00 (0000ms, 0691ms total)
T0ACC 001:277 JLINK_WriteReg(R1, 0x00000400)  returns 0x00 (0000ms, 0691ms total)
T0ACC 001:277 JLINK_WriteReg(R2, 0x20000180)  returns 0x00 (0000ms, 0691ms total)
T0ACC 001:277 JLINK_WriteReg(R3, 0x00000000)  returns 0x00 (0000ms, 0691ms total)
T0ACC 001:277 JLINK_WriteReg(R4, 0x00000000)  returns 0x00 (0000ms, 0691ms total)
T0ACC 001:277 JLINK_WriteReg(R5, 0x00000000)  returns 0x00 (0000ms, 0691ms total)
T0ACC 001:277 JLINK_WriteReg(R6, 0x00000000)  returns 0x00 (0000ms, 0691ms total)
T0ACC 001:278 JLINK_WriteReg(R7, 0x00000000)  returns 0x00 (0000ms, 0691ms total)
T0ACC 001:278 JLINK_WriteReg(R8, 0x00000000)  returns 0x00 (0000ms, 0691ms total)
T0ACC 001:278 JLINK_WriteReg(R9, 0x2000017C)  returns 0x00 (0000ms, 0691ms total)
T0ACC 001:278 JLINK_WriteReg(R10, 0x00000000)  returns 0x00 (0000ms, 0691ms total)
T0ACC 001:278 JLINK_WriteReg(R11, 0x00000000)  returns 0x00 (0000ms, 0691ms total)
T0ACC 001:278 JLINK_WriteReg(R12, 0x00000000)  returns 0x00 (0000ms, 0691ms total)
T0ACC 001:278 JLINK_WriteReg(R13 (SP), 0x20001000)  returns 0x00 (0000ms, 0691ms total)
T0ACC 001:278 JLINK_WriteReg(R14, 0x20000001)  returns 0x00 (0000ms, 0691ms total)
T0ACC 001:278 JLINK_WriteReg(R15 (PC), 0x20000108)  returns 0x00 (0000ms, 0691ms total)
T0ACC 001:278 JLINK_WriteReg(XPSR, 0x01000000)  returns 0x00 (0000ms, 0691ms total)
T0ACC 001:278 JLINK_WriteReg(MSP, 0x20001000)  returns 0x00 (0000ms, 0691ms total)
T0ACC 001:278 JLINK_WriteReg(PSP, 0x20001000)  returns 0x00 (0000ms, 0691ms total)
T0ACC 001:278 JLINK_WriteReg(CFBP, 0x00000000)  returns 0x00 (0000ms, 0691ms total)
T0ACC 001:278 JLINK_SetBPEx(Addr = 0x20000000, Type = 0xFFFFFFF2)  returns 0x00000009 (0000ms, 0691ms total)
T0ACC 001:278 JLINK_Go() (0002ms, 0693ms total)
T0ACC 001:280 JLINK_IsHalted()  returns FALSE (0000ms, 0693ms total)
T0ACC 001:309 JLINK_IsHalted() -- CPU_ReadMem(2 bytes @ 0x20000000)  returns TRUE (0003ms, 0696ms total)
T0ACC 001:312 JLINK_ReadReg(R15 (PC))  returns 0x20000000 (0000ms, 0693ms total)
T0ACC 001:312 JLINK_ClrBPEx(BPHandle = 0x00000009)  returns 0x00 (0000ms, 0693ms total)
T0ACC 001:312 JLINK_ReadReg(R0)  returns 0x00000000 (0000ms, 0693ms total)
T0ACC 001:313 JLINK_WriteMem(0x20000180, 0x0400 Bytes, ...) - Data: 80 E1 00 E0 80 FF FF 1F 10 B5 04 46 98 48 84 42 ... -- CPU_WriteMem(1024 bytes @ 0x20000180)  returns 0x400 (0007ms, 0700ms total)
T0ACC 001:320 JLINK_WriteReg(R0, 0x08001000)  returns 0x00 (0000ms, 0700ms total)
T0ACC 001:320 JLINK_WriteReg(R1, 0x00000400)  returns 0x00 (0000ms, 0700ms total)
T0ACC 001:320 JLINK_WriteReg(R2, 0x20000180)  returns 0x00 (0000ms, 0700ms total)
T0ACC 001:320 JLINK_WriteReg(R3, 0x00000000)  returns 0x00 (0000ms, 0700ms total)
T0ACC 001:320 JLINK_WriteReg(R4, 0x00000000)  returns 0x00 (0000ms, 0700ms total)
T0ACC 001:320 JLINK_WriteReg(R5, 0x00000000)  returns 0x00 (0000ms, 0700ms total)
T0ACC 001:320 JLINK_WriteReg(R6, 0x00000000)  returns 0x00 (0000ms, 0700ms total)
T0ACC 001:320 JLINK_WriteReg(R7, 0x00000000)  returns 0x00 (0000ms, 0700ms total)
T0ACC 001:320 JLINK_WriteReg(R8, 0x00000000)  returns 0x00 (0000ms, 0700ms total)
T0ACC 001:320 JLINK_WriteReg(R9, 0x2000017C)  returns 0x00 (0000ms, 0700ms total)
T0ACC 001:320 JLINK_WriteReg(R10, 0x00000000)  returns 0x00 (0000ms, 0700ms total)
T0ACC 001:320 JLINK_WriteReg(R11, 0x00000000)  returns 0x00 (0000ms, 0700ms total)
T0ACC 001:320 JLINK_WriteReg(R12, 0x00000000)  returns 0x00 (0000ms, 0700ms total)
T0ACC 001:321 JLINK_WriteReg(R13 (SP), 0x20001000)  returns 0x00 (0000ms, 0701ms total)
T0ACC 001:321 JLINK_WriteReg(R14, 0x20000001)  returns 0x00 (0000ms, 0701ms total)
T0ACC 001:321 JLINK_WriteReg(R15 (PC), 0x20000108)  returns 0x00 (0000ms, 0701ms total)
T0ACC 001:321 JLINK_WriteReg(XPSR, 0x01000000)  returns 0x00 (0000ms, 0701ms total)
T0ACC 001:321 JLINK_WriteReg(MSP, 0x20001000)  returns 0x00 (0000ms, 0701ms total)
T0ACC 001:321 JLINK_WriteReg(PSP, 0x20001000)  returns 0x00 (0000ms, 0701ms total)
T0ACC 001:321 JLINK_WriteReg(CFBP, 0x00000000)  returns 0x00 (0000ms, 0701ms total)
T0ACC 001:321 JLINK_SetBPEx(Addr = 0x20000000, Type = 0xFFFFFFF2)  returns 0x0000000A (0000ms, 0701ms total)
T0ACC 001:321 JLINK_Go() (0001ms, 0702ms total)
T0ACC 001:322 JLINK_IsHalted()  returns FALSE (0001ms, 0703ms total)
T0ACC 001:331 JLINK_IsHalted() -- CPU_ReadMem(2 bytes @ 0x20000000)  returns TRUE (0003ms, 0705ms total)
T0ACC 001:334 JLINK_ReadReg(R15 (PC))  returns 0x20000000 (0000ms, 0702ms total)
T0ACC 001:334 JLINK_ClrBPEx(BPHandle = 0x0000000A)  returns 0x00 (0000ms, 0702ms total)
T0ACC 001:334 JLINK_ReadReg(R0)  returns 0x00000000 (0000ms, 0702ms total)
T0ACC 001:335 JLINK_WriteMem(0x20000180, 0x0400 Bytes, ...) - Data: 01 FB 10 78 A8 89 00 F4 00 40 40 B1 32 20 00 EB ... -- CPU_WriteMem(1024 bytes @ 0x20000180)  returns 0x400 (0006ms, 0708ms total)
T0ACC 001:341 JLINK_WriteReg(R0, 0x08001400)  returns 0x00 (0000ms, 0708ms total)
T0ACC 001:341 JLINK_WriteReg(R1, 0x00000400)  returns 0x00 (0000ms, 0708ms total)
T0ACC 001:341 JLINK_WriteReg(R2, 0x20000180)  returns 0x00 (0000ms, 0708ms total)
T0ACC 001:341 JLINK_WriteReg(R3, 0x00000000)  returns 0x00 (0000ms, 0708ms total)
T0ACC 001:341 JLINK_WriteReg(R4, 0x00000000)  returns 0x00 (0000ms, 0708ms total)
T0ACC 001:341 JLINK_WriteReg(R5, 0x00000000)  returns 0x00 (0000ms, 0708ms total)
T0ACC 001:341 JLINK_WriteReg(R6, 0x00000000)  returns 0x00 (0000ms, 0708ms total)
T0ACC 001:341 JLINK_WriteReg(R7, 0x00000000)  returns 0x00 (0000ms, 0708ms total)
T0ACC 001:341 JLINK_WriteReg(R8, 0x00000000)  returns 0x00 (0001ms, 0709ms total)
T0ACC 001:342 JLINK_WriteReg(R9, 0x2000017C)  returns 0x00 (0000ms, 0709ms total)
T0ACC 001:342 JLINK_WriteReg(R10, 0x00000000)  returns 0x00 (0000ms, 0709ms total)
T0ACC 001:342 JLINK_WriteReg(R11, 0x00000000)  returns 0x00 (0000ms, 0709ms total)
T0ACC 001:342 JLINK_WriteReg(R12, 0x00000000)  returns 0x00 (0000ms, 0709ms total)
T0ACC 001:342 JLINK_WriteReg(R13 (SP), 0x20001000)  returns 0x00 (0000ms, 0709ms total)
T0ACC 001:342 JLINK_WriteReg(R14, 0x20000001)  returns 0x00 (0000ms, 0709ms total)
T0ACC 001:342 JLINK_WriteReg(R15 (PC), 0x20000108)  returns 0x00 (0000ms, 0709ms total)
T0ACC 001:342 JLINK_WriteReg(XPSR, 0x01000000)  returns 0x00 (0000ms, 0709ms total)
T0ACC 001:342 JLINK_WriteReg(MSP, 0x20001000)  returns 0x00 (0000ms, 0709ms total)
T0ACC 001:342 JLINK_WriteReg(PSP, 0x20001000)  returns 0x00 (0000ms, 0709ms total)
T0ACC 001:342 JLINK_WriteReg(CFBP, 0x00000000)  returns 0x00 (0000ms, 0709ms total)
T0ACC 001:342 JLINK_SetBPEx(Addr = 0x20000000, Type = 0xFFFFFFF2)  returns 0x0000000B (0000ms, 0709ms total)
T0ACC 001:342 JLINK_Go() (0001ms, 0710ms total)
T0ACC 001:343 JLINK_IsHalted()  returns FALSE (0001ms, 0711ms total)
T0ACC 001:351 JLINK_IsHalted() -- CPU_ReadMem(2 bytes @ 0x20000000)  returns TRUE (0003ms, 0713ms total)
T0ACC 001:354 JLINK_ReadReg(R15 (PC))  returns 0x20000000 (0000ms, 0710ms total)
T0ACC 001:354 JLINK_ClrBPEx(BPHandle = 0x0000000B)  returns 0x00 (0000ms, 0710ms total)
T0ACC 001:354 JLINK_ReadReg(R0)  returns 0x00000000 (0000ms, 0710ms total)
T0ACC 001:355 JLINK_WriteMem(0x20000180, 0x0400 Bytes, ...) - Data: 70 32 11 70 00 E0 00 BF 00 BF 70 47 B7 49 08 60 ... -- CPU_WriteMem(1024 bytes @ 0x20000180)  returns 0x400 (0007ms, 0717ms total)
T0ACC 001:362 JLINK_WriteReg(R0, 0x08001800)  returns 0x00 (0000ms, 0717ms total)
T0ACC 001:362 JLINK_WriteReg(R1, 0x00000400)  returns 0x00 (0000ms, 0717ms total)
T0ACC 001:362 JLINK_WriteReg(R2, 0x20000180)  returns 0x00 (0000ms, 0717ms total)
T0ACC 001:362 JLINK_WriteReg(R3, 0x00000000)  returns 0x00 (0000ms, 0717ms total)
T0ACC 001:362 JLINK_WriteReg(R4, 0x00000000)  returns 0x00 (0000ms, 0717ms total)
T0ACC 001:362 JLINK_WriteReg(R5, 0x00000000)  returns 0x00 (0000ms, 0717ms total)
T0ACC 001:362 JLINK_WriteReg(R6, 0x00000000)  returns 0x00 (0000ms, 0717ms total)
T0ACC 001:362 JLINK_WriteReg(R7, 0x00000000)  returns 0x00 (0000ms, 0717ms total)
T0ACC 001:362 JLINK_WriteReg(R8, 0x00000000)  returns 0x00 (0000ms, 0717ms total)
T0ACC 001:362 JLINK_WriteReg(R9, 0x2000017C)  returns 0x00 (0000ms, 0717ms total)
T0ACC 001:362 JLINK_WriteReg(R10, 0x00000000)  returns 0x00 (0000ms, 0717ms total)
T0ACC 001:362 JLINK_WriteReg(R11, 0x00000000)  returns 0x00 (0000ms, 0717ms total)
T0ACC 001:362 JLINK_WriteReg(R12, 0x00000000)  returns 0x00 (0000ms, 0717ms total)
T0ACC 001:362 JLINK_WriteReg(R13 (SP), 0x20001000)  returns 0x00 (0000ms, 0717ms total)
T0ACC 001:362 JLINK_WriteReg(R14, 0x20000001)  returns 0x00 (0000ms, 0717ms total)
T0ACC 001:362 JLINK_WriteReg(R15 (PC), 0x20000108)  returns 0x00 (0000ms, 0717ms total)
T0ACC 001:362 JLINK_WriteReg(XPSR, 0x01000000)  returns 0x00 (0001ms, 0718ms total)
T0ACC 001:363 JLINK_WriteReg(MSP, 0x20001000)  returns 0x00 (0000ms, 0718ms total)
T0ACC 001:363 JLINK_WriteReg(PSP, 0x20001000)  returns 0x00 (0000ms, 0718ms total)
T0ACC 001:363 JLINK_WriteReg(CFBP, 0x00000000)  returns 0x00 (0000ms, 0718ms total)
T0ACC 001:363 JLINK_SetBPEx(Addr = 0x20000000, Type = 0xFFFFFFF2)  returns 0x0000000C (0000ms, 0718ms total)
T0ACC 001:363 JLINK_Go() (0002ms, 0720ms total)
T0ACC 001:365 JLINK_IsHalted()  returns FALSE (0000ms, 0720ms total)
T0ACC 001:370 JLINK_IsHalted() -- CPU_ReadMem(2 bytes @ 0x20000000)  returns TRUE (0003ms, 0723ms total)
T0ACC 001:373 JLINK_ReadReg(R15 (PC))  returns 0x20000000 (0000ms, 0720ms total)
T0ACC 001:373 JLINK_ClrBPEx(BPHandle = 0x0000000C)  returns 0x00 (0000ms, 0720ms total)
T0ACC 001:373 JLINK_ReadReg(R0)  returns 0x00000000 (0000ms, 0720ms total)
T0ACC 001:375 JLINK_WriteMem(0x20000180, 0x0400 Bytes, ...) - Data: 70 47 39 B1 50 4A 10 3A 12 68 02 43 4E 4B 10 3B ... -- CPU_WriteMem(1024 bytes @ 0x20000180)  returns 0x400 (0006ms, 0726ms total)
T0ACC 001:381 JLINK_WriteReg(R0, 0x08001C00)  returns 0x00 (0000ms, 0726ms total)
T0ACC 001:381 JLINK_WriteReg(R1, 0x00000300)  returns 0x00 (0000ms, 0726ms total)
T0ACC 001:381 JLINK_WriteReg(R2, 0x20000180)  returns 0x00 (0000ms, 0726ms total)
T0ACC 001:381 JLINK_WriteReg(R3, 0x00000000)  returns 0x00 (0000ms, 0726ms total)
T0ACC 001:381 JLINK_WriteReg(R4, 0x00000000)  returns 0x00 (0000ms, 0726ms total)
T0ACC 001:381 JLINK_WriteReg(R5, 0x00000000)  returns 0x00 (0000ms, 0726ms total)
T0ACC 001:381 JLINK_WriteReg(R6, 0x00000000)  returns 0x00 (0000ms, 0726ms total)
T0ACC 001:381 JLINK_WriteReg(R7, 0x00000000)  returns 0x00 (0000ms, 0726ms total)
T0ACC 001:381 JLINK_WriteReg(R8, 0x00000000)  returns 0x00 (0000ms, 0726ms total)
T0ACC 001:381 JLINK_WriteReg(R9, 0x2000017C)  returns 0x00 (0000ms, 0726ms total)
T0ACC 001:381 JLINK_WriteReg(R10, 0x00000000)  returns 0x00 (0000ms, 0726ms total)
T0ACC 001:381 JLINK_WriteReg(R11, 0x00000000)  returns 0x00 (0000ms, 0726ms total)
T0ACC 001:381 JLINK_WriteReg(R12, 0x00000000)  returns 0x00 (0000ms, 0726ms total)
T0ACC 001:381 JLINK_WriteReg(R13 (SP), 0x20001000)  returns 0x00 (0001ms, 0727ms total)
T0ACC 001:382 JLINK_WriteReg(R14, 0x20000001)  returns 0x00 (0000ms, 0727ms total)
T0ACC 001:382 JLINK_WriteReg(R15 (PC), 0x20000108)  returns 0x00 (0000ms, 0727ms total)
T0ACC 001:382 JLINK_WriteReg(XPSR, 0x01000000)  returns 0x00 (0000ms, 0727ms total)
T0ACC 001:382 JLINK_WriteReg(MSP, 0x20001000)  returns 0x00 (0000ms, 0727ms total)
T0ACC 001:382 JLINK_WriteReg(PSP, 0x20001000)  returns 0x00 (0000ms, 0727ms total)
T0ACC 001:382 JLINK_WriteReg(CFBP, 0x00000000)  returns 0x00 (0000ms, 0727ms total)
T0ACC 001:382 JLINK_SetBPEx(Addr = 0x20000000, Type = 0xFFFFFFF2)  returns 0x0000000D (0000ms, 0727ms total)
T0ACC 001:382 JLINK_Go() (0001ms, 0728ms total)
T0ACC 001:383 JLINK_IsHalted()  returns FALSE (0000ms, 0728ms total)
T0ACC 001:388 JLINK_IsHalted() -- CPU_ReadMem(2 bytes @ 0x20000000)  returns TRUE (0003ms, 0731ms total)
T0ACC 001:391 JLINK_ReadReg(R15 (PC))  returns 0x20000000 (0000ms, 0728ms total)
T0ACC 001:391 JLINK_ClrBPEx(BPHandle = 0x0000000D)  returns 0x00 (0000ms, 0728ms total)
T0ACC 001:391 JLINK_ReadReg(R0)  returns 0x00000000 (0000ms, 0728ms total)
T0ACC 001:391 JLINK_WriteReg(R0, 0x00000002)  returns 0x00 (0000ms, 0728ms total)
T0ACC 001:391 JLINK_WriteReg(R1, 0x00000300)  returns 0x00 (0000ms, 0728ms total)
T0ACC 001:391 JLINK_WriteReg(R2, 0x20000180)  returns 0x00 (0000ms, 0728ms total)
T0ACC 001:391 JLINK_WriteReg(R3, 0x00000000)  returns 0x00 (0000ms, 0728ms total)
T0ACC 001:391 JLINK_WriteReg(R4, 0x00000000)  returns 0x00 (0000ms, 0728ms total)
T0ACC 001:391 JLINK_WriteReg(R5, 0x00000000)  returns 0x00 (0000ms, 0728ms total)
T0ACC 001:391 JLINK_WriteReg(R6, 0x00000000)  returns 0x00 (0000ms, 0728ms total)
T0ACC 001:391 JLINK_WriteReg(R7, 0x00000000)  returns 0x00 (0000ms, 0728ms total)
T0ACC 001:391 JLINK_WriteReg(R8, 0x00000000)  returns 0x00 (0000ms, 0728ms total)
T0ACC 001:391 JLINK_WriteReg(R9, 0x2000017C)  returns 0x00 (0000ms, 0728ms total)
T0ACC 001:392 JLINK_WriteReg(R10, 0x00000000)  returns 0x00 (0000ms, 0729ms total)
T0ACC 001:392 JLINK_WriteReg(R11, 0x00000000)  returns 0x00 (0000ms, 0729ms total)
T0ACC 001:392 JLINK_WriteReg(R12, 0x00000000)  returns 0x00 (0000ms, 0729ms total)
T0ACC 001:392 JLINK_WriteReg(R13 (SP), 0x20001000)  returns 0x00 (0000ms, 0729ms total)
T0ACC 001:392 JLINK_WriteReg(R14, 0x20000001)  returns 0x00 (0000ms, 0729ms total)
T0ACC 001:392 JLINK_WriteReg(R15 (PC), 0x20000082)  returns 0x00 (0000ms, 0729ms total)
T0ACC 001:392 JLINK_WriteReg(XPSR, 0x01000000)  returns 0x00 (0000ms, 0729ms total)
T0ACC 001:392 JLINK_WriteReg(MSP, 0x20001000)  returns 0x00 (0000ms, 0729ms total)
T0ACC 001:392 JLINK_WriteReg(PSP, 0x20001000)  returns 0x00 (0000ms, 0729ms total)
T0ACC 001:392 JLINK_WriteReg(CFBP, 0x00000000)  returns 0x00 (0000ms, 0729ms total)
T0ACC 001:392 JLINK_SetBPEx(Addr = 0x20000000, Type = 0xFFFFFFF2)  returns 0x0000000E (0000ms, 0729ms total)
T0ACC 001:392 JLINK_Go() (0001ms, 0730ms total)
T0ACC 001:393 JLINK_IsHalted() -- CPU_ReadMem(2 bytes @ 0x20000000)  returns TRUE (0003ms, 0733ms total)
T0ACC 001:396 JLINK_ReadReg(R15 (PC))  returns 0x20000000 (0000ms, 0730ms total)
T0ACC 001:396 JLINK_ClrBPEx(BPHandle = 0x0000000E)  returns 0x00 (0000ms, 0730ms total)
T0ACC 001:396 JLINK_ReadReg(R0)  returns 0x00000000 (0000ms, 0730ms total)
T0ACC 001:459 JLINK_WriteMem(0x20000000, 0x0180 Bytes, ...) - Data: 00 BE 0A E0 0D 78 2D 06 68 40 08 24 40 00 00 D3 ... -- CPU_WriteMem(384 bytes @ 0x20000000)  returns 0x180 (0003ms, 0733ms total)
T0ACC 001:462 JLINK_WriteReg(R0, 0x08000000)  returns 0x00 (0000ms, 0733ms total)
T0ACC 001:462 JLINK_WriteReg(R1, 0x00B71B00)  returns 0x00 (0000ms, 0733ms total)
T0ACC 001:462 JLINK_WriteReg(R2, 0x00000003)  returns 0x00 (0000ms, 0733ms total)
T0ACC 001:462 JLINK_WriteReg(R3, 0x00000000)  returns 0x00 (0000ms, 0733ms total)
T0ACC 001:462 JLINK_WriteReg(R4, 0x00000000)  returns 0x00 (0000ms, 0733ms total)
T0ACC 001:462 JLINK_WriteReg(R5, 0x00000000)  returns 0x00 (0000ms, 0733ms total)
T0ACC 001:462 JLINK_WriteReg(R6, 0x00000000)  returns 0x00 (0000ms, 0733ms total)
T0ACC 001:462 JLINK_WriteReg(R7, 0x00000000)  returns 0x00 (0000ms, 0733ms total)
T0ACC 001:462 JLINK_WriteReg(R8, 0x00000000)  returns 0x00 (0000ms, 0733ms total)
T0ACC 001:462 JLINK_WriteReg(R9, 0x2000017C)  returns 0x00 (0000ms, 0733ms total)
T0ACC 001:462 JLINK_WriteReg(R10, 0x00000000)  returns 0x00 (0000ms, 0733ms total)
T0ACC 001:462 JLINK_WriteReg(R11, 0x00000000)  returns 0x00 (0000ms, 0733ms total)
T0ACC 001:462 JLINK_WriteReg(R12, 0x00000000)  returns 0x00 (0000ms, 0733ms total)
